./test-around-opencl.sh
Index           Time 1st try    Time 2nd try    Time 3rd try

1761303161      0.950           0.944           0.939
1761303162      3.109           3.071           3.080
1761303163      16.302          16.329          16.351
1761303164      0.649           0.660           0.663
1761303165      1.479           1.512           1.480
1761303166      1.593           1.578           1.591
1761303167      1.662           1.642           1.668
1761303168      0.698           0.687           0.696
1761303169      0.836           0.835           0.831
1761303170      0.714           0.679           0.676
1761303171      5.755           5.717           5.745
1761303172      4.424           4.413           4.409
1761303173      0.710           0.710           0.722
1761303174      0.670           0.669           0.653
1761303175      1.088           1.077           1.078
1761303176      2.418           2.422           2.430
1761303177      1.024           1.022           1.029
1761303178      8.391           8.397           8.354
1761303179      16.353          16.373          16.331
1761303180      0.805           0.786           0.776
1761303181      1.901           1.878           1.895
1761303182      8.394           8.385           8.386
1761303183      0.654           0.663           0.664
1761303184      1.435           1.414           1.443

